*z wave module is zm3102n (cant be because pin 11 is ground)
* pin 1,6,12,16,17 are ground this matches the module that is on the daughter card
* pin 10 and 15 are rx and tx for serial
* pin txd (15) connects to pin 8 on daughter board
* pin rxd (10) connnects to pin ping 6 on daughter board.
* pin 3,5,7,9 on daughter board are gnd
* 9600 baud bus

Pin 6 traffic
READ: 0xBD 
UART>r
READ: 0x0F 
UART>r
READ: 0x03 
UART>r

READ: 0xFF 
UART>r
READ: 0x0F 
UART>r
READ: 0x03 
UART>
UART>r
READ: 0xCF 
UART>r

UART>r
READ: 0xBD 
UART>r
READ: 0x0F 
UART>r
READ: 0x03 
UART>r
READ: 0xC0 
UART>r
READ: 0xBD 
UART>r

READ: 0xBD 
UART>r
READ: 0x0F 
UART>r
READ: 0x03 
UART>r
READ: 0xC0 
UART>r

READ: 0xBD 
UART>r
READ: 0x0F 
UART>r
READ: 0x00 
UART>r
READ: 0xC0 
UART>r

READ: 0xFF 
UART>r
READ: 0x0F 
UART>r
READ: 0x03 
UART>r
READ: 0xCF 
UART>r

READ: 0xFF 
UART>r
READ: 0x0F 
UART>r
READ: 0x03 
UART>r
READ: 0xCF 

READ: 0xFF 
UART>r
READ: 0x0F 
UART>r
READ: 0x0C 
UART>r
READ: 0xCF 
UART>r

READ: 0xFF 
UART>r
READ: 0x0F 
UART>r
READ: 0x00 
UART>r
READ: 0xC0 


READ: 0xFF 
UART>
UART>r
READ: 0x0F 
UART>r
READ: 0x0C 
UART>r
READ: 0xC0 
UART>r

UART>r
READ: 0xFF 
UART>r
READ: 0x0F 
UART>r
READ: 0x0F 
UART>r
READ: 0xCF 
UART>r

READ: 0xFF 
UART>r
READ: 0x0F 
UART>r
READ: 0x0C 
UART>r
READ: 0xCF 
UART>r
READ: 0xFF 
UART>r

READ: 0xFF 
UART>r
READ: 0x0F 
UART>r
READ: 0x00 
UART>r
READ: 0xC0 
UART>r

UART>r
READ: 0xFF 
UART>r
READ: 0x0F 
UART>r
READ: 0x0C 
UART>r
READ: 0xC0 

UART>r
READ: 0xFF 
UART>r
READ: 0x0F 
UART>r
READ: 0x0F 
UART>r
READ: 0xCF 

pin 8 traffic
READ: -f 0x00 
READ: 0xBD 
READ: 0x04 
READ: 0x01 

READ: 0xBD 
UART>r
READ: 0x04 
UART>r
READ: 0x02 
UART>r
READ: 0xE7 
UART>r

READ: 0xBD 
READ: 0x04 
READ: 0x01 
READ: 0xE7 

READ: 0xBD 
READ: 0x04 
READ: 0x02 
READ: 0xE7 

READ: 0xBD 
READ: 0x04 
READ: 0x04 
READ: 0xE7 



READ: 0xBD 
READ: 0x04 
READ: 0x01 
READ: 0xE7 


WRITE: 0xBD 
WRITE: 0x04 
WRITE: 0x03 
WRITE: 0x0E 
UART>rrrrr
READ: 0xBF 
READ: 0x0F 
READ: 0x03 
READ: 0x3F 


it looks like first byte might be a sequence
UART>0xbd 0x04 0x03 0x0e
WRITE: 0xBD 
WRITE: 0x04 
WRITE: 0x03 
WRITE: 0x0E 
UART>rrrrr
READ: 0xFF 
READ: 0x0F 
READ: 0x03 
READ: 0x3F 
READ: FAILED, NO DATA0x00 

putting in a bad code seems to lock the lock up

READ: FAILED, NO DATA0x00 
UART>0xbd 0x04 0x03 0x0e
WRITE: 0xBD 
WRITE: 0x04 
WRITE: 0x03 
WRITE: 0x0E 
UART>rrrrr
READ: 0xFF 
READ: 0x0F 
READ: 0x03 
READ: 0x3F 
READ: FAILED, NO DATA0x00 

UART>0x00 0xbd 0x04 0x01
WRITE: 0x00 
WRITE: 0xBD 
WRITE: 0x04 
WRITE: 0x01 
UART>rrrrr
READ: 0xFF 
READ: 0x0F 
READ: 0x03 
READ: 0x3F 
READ: FAILED, NO DATA0x00 


start in locked position
UART>0x00 0xbd 0x04 0x01
WRITE: 0x00 
WRITE: 0xBD 
WRITE: 0x04 
WRITE: 0x01 
UART>rrrrr
READ: 0xBF 
READ: 0x0F 
READ: 0x03 
READ: 0x7F 


UART>0x00 0xbd 0x04 0x01
WRITE: 0x00 
WRITE: 0xBD 
WRITE: 0x04 
WRITE: 0x01 
UART>rrrrr
READ: 0xBF 
READ: 0x0F 
READ: 0x03 
READ: 0x7F 


READ: FAILED, NO DATA0x00 
UART>0x00 0xbd 0x04 0x01
WRITE: 0x00 
WRITE: 0xBD 
WRITE: 0x04 
WRITE: 0x01 
UART>rrrrr
READ: 0xBF 
READ: 0x0F 
READ: 0x03 
READ: 0x7F 
READ: FAILED, NO DATA0x00 


unlocked 
UART>0x00 0xbd 0x04 0x01
WRITE: 0x00 
WRITE: 0xBD 
WRITE: 0x04 
WRITE: 0x01 
UART>rrrrr
READ: 0xBF 
READ: 0x0F 
READ: 0x03 
READ: 0x7F 
READ: FAILED, NO DATA0x00 


recoverd with this one multiple times 
UART>0x00 0xbd 0x04 0x01
WRITE: 0x00 
WRITE: 0xBD 
WRITE: 0x04 
WRITE: 0x01 
UART>rrrrr
READ: 0xBF 
READ: 0x0F 
READ: 0x03 
READ: 0x7F 
READ: FAILED, NO DATA0x00 


UART>0xbd 0x04 0x03 0x0e
WRITE: 0xBD 
WRITE: 0x04 
WRITE: 0x03 
WRITE: 0x0E 
UART>rrrrr
READ: 0xBF 
READ: 0x0F 
READ: 0x03 
READ: 0x7F 
READ: FAILED, NO DATA0x00 
UART>

UART>0x00 0xbd 0x04 0x01
WRITE: 0x00 
WRITE: 0xBD 
WRITE: 0x04 
WRITE: 0x01 
UART>rrrrr
READ: 0xBD 
READ: 0x0F 
READ: 0x03 
READ: 0x3F 
READ: FAILED, NO DATA0x00 



receive from door after connect to zwave pin 8

READ: -f 0x00 
READ: 0xBD 
READ: 0x04 
READ: 0x01 


UART>rrrr
READ: 0xBD 
READ: 0x04 
READ: 0x02 
READ: 0xE7 


READ: 0xBD
UART>rr
READ: 0x04
READ: 0x03
READ: 0xE7
READ: 0x05
READ: 0x1A
READ: 0xBD
UART>
READ: 0x04
READ: 0x04
READ: 0xE7
READ: 0x07
READ: 0x1F


READ: 0xBD
UART>r
READ: 0x04
READ: 0x05
READ: 0xE7
READ: 0x07
READ: 0x1E


UART>
READ: 0xBD
UART>
READ: 0x04
READ: 0x06
READ: 0xE7
READ: 0x03
READ: 0x19


Unlock

UART>
READ: 0xBD
UART>
READ: 0x04
READ: 0x07
READ: 0xE7
READ: 0x07
READ: 0x1C


UART>
READ: 0xBD
UART>
READ: 0x04
READ: 0x08
READ: 0xE7
READ: 0x07
READ: 0x13
UART>
READ: 0xBD
UART>
READ: 0x04
READ: 0x09
READ: 0xE7
READ: 0x05
READ: 0x10
UART>
READ: 0xBD
UART>
READ: 0x04
READ: 0x0A
READ: 0xE7
READ: 0x07
READ: 0x11
UART>
READ: 0xBD
UART>
READ: 0x04
READ: 0x0B
READ: 0xE7
READ: 0x07
READ: 0x10


lock

READ: 0xBD
UART>r
READ: 0x04
READ: 0x0C
READ: 0xE7
READ: 0x03
READ: 0x13

UART>  
READ: 0xBD
UART>
READ: 0x04
READ: 0x0D
READ: 0xE7
READ: 0x07
READ: 0x16

UART>
READ: 0xBD
UART>
READ: 0x04
READ: 0x0E
READ: 0xE7
READ: 0x07
READ: 0x15


mycode 1234

READ: 0xBD
UART>
READ: 0x0A
READ: 0x0F
READ: 0xE7
READ: 0x0B
READ: 0x00
READ: 0x01
READ: 0x12
READ: 0x12
READ: 0x34
READ: 0x34
READ: 0x17
UART>
READ: 0xBD
UART>
READ: 0x06
READ: 0x10
READ: 0xE7
READ: 0x0C
READ: 0x00
READ: 0x01
READ: 0x03
UART>

remove mycode 1234
READ: 0xBD
UART>
READ: 0x06
READ: 0x11
READ: 0xE7
READ: 0x0D
READ: 0x00
READ: 0x01
READ: 0x03
UART>
READ: 0xBD
UART>
READ: 0x06
READ: 0x12
READ: 0xE7
READ: 0x0C
READ: 0x00
READ: 0x01
READ: 0x01
UART>
READ: 0xBD
UART>
READ: 0x06
READ: 0x13
READ: 0xE7
READ: 0x0C
READ: 0x00
READ: 0x01
READ: 0x00

does not seem to remove it though
READ: 0xBD
UART>
READ: 0x06
READ: 0x14
READ: 0xE7
READ: 0x0D
READ: 0x00
READ: 0x01
READ: 0x06
UART>
UART>
UART>
READ: 0xBD
UART>
READ: 0x06
READ: 0x15
READ: 0xE7
READ: 0x0C
READ: 0x00
READ: 0x01
READ: 0x06
UART>
READ: 0xBD
UART>
READ: 0x06
READ: 0x16
READ: 0xE7
READ: 0x0C
READ: 0x00
READ: 0x01
READ: 0x05

mycode2  pin 2244
READ: 0xBD
UART>
READ: 0x0A
READ: 0x17
READ: 0xE7
READ: 0x0B
READ: 0x00
READ: 0x02
READ: 0x12
READ: 0x12
READ: 0x34
READ: 0x34
READ: 0x0C
UART>
READ: 0xBD
UART>
READ: 0x06
READ: 0x18
READ: 0xE7
READ: 0x0C
READ: 0x00
READ: 0x02
READ: 0x08

enter 1234 on pin pad
NO DATA
press lock button on pin pad
no data

Refresh web page
no data

delete mycode2
READ: 0xBD
UART>
READ: 0x06
READ: 0x1C
READ: 0xE7
READ: 0x0D
READ: 0x00
READ: 0x02
READ: 0x0D
UART>
READ: 0xBD
UART>
READ: 0x06
READ: 0x1D
READ: 0xE7
READ: 0x0C
READ: 0x00
READ: 0x02
READ: 0x0D
UART>
READ: 0xBD
UART>
READ: 0x06
READ: 0x1E
READ: 0xE7
READ: 0x0C
READ: 0x00
READ: 0x02
READ: 0x0E

cant seem to delete

poll now 
READ: 0xBD
UART>
READ: 0x04
READ: 0x1F
READ: 0xE7
READ: 0x07
READ: 0x04
UART>
READ: 0xBD
UART>
READ: 0x04
READ: 0x20
READ: 0xE7
READ: 0x07
READ: 0x3B


mycode3 9077
READ: 0xBD
UART>
READ: 0x0A
READ: 0x21
READ: 0xE7
READ: 0x0B
READ: 0x00
READ: 0x03
READ: 0x90
READ: 0x90
READ: 0x78
READ: 0x78
READ: 0x3B
UART>
READ: 0xBD
UART>
READ: 0x06
READ: 0x22
READ: 0xE7
READ: 0x0C
READ: 0x00
READ: 0x03
READ: 0x33


remove mycode3
READ: 0xBD
UART>
READ: 0x06
READ: 0x26
READ: 0xE7
READ: 0x0D
READ: 0x00
READ: 0x03
READ: 0x36
UART>
READ: 0xBD
UART>
READ: 0x06
READ: 0x27
READ: 0xE7
READ: 0x0C
READ: 0x00
READ: 0x03
READ: 0x36
UART>
READ: 0xBD
UART>
READ: 0x06
READ: 0x28
READ: 0xE7
READ: 0x0C
READ: 0x00
READ: 0x03
READ: 0x39

bad entries not sure what this is 
UART>
READ: 0xBD
UART>
READ: 0x04
READ: 0x29
READ: 0xE7
READ: 0x03
READ: 0x36
UART>
READ: 0xBD
UART>
READ: 0x04
READ: 0x2A
READ: 0xE7
READ: 0x07
READ: 0x31
UART>
READ: 0xBD
UART>
READ: 0x04
READ: 0x2B
READ: 0xE7
READ: 0x07
READ: 0x30

i take it back its deleting it on the door but not on the web interface

mycode 1357
READ: 0xBD
UART>
READ: 0x04
READ: 0x2C
READ: 0xE7
READ: 0x03
READ: 0x33
UART>
READ: 0xBD
UART>
READ: 0x0A
READ: 0x2D
READ: 0xE7
READ: 0x0B
READ: 0x00
READ: 0x04
READ: 0x12
READ: 0x34
READ: 0x56
READ: 0x78
READ: 0x38
UART>
READ: 0xBD
UART>
READ: 0x06
READ: 0x2E
READ: 0xE7
READ: 0x0C
READ: 0x00
READ: 0x04
READ: 0x38
UART>
READ: 0xBD
UART>  
READ: 0x04
READ: 0x2F
READ: 0xE7
READ: 0x07
READ: 0x34
UART>

transmit from door after connect to zwave pin 6
READ: 0xBD
UART>
READ: 0x0F
READ: 0x00
READ: 0xC0
READ: 0x30
READ: 0x03
READ: 0x03
UART>
READ: 0xBF
UART>
READ: 0x0F
READ: 0x03
READ: 0xCF
READ: 0x03
READ: 0x30
READ: 0x0F
UART>
READ: 0xBF
UART>
READ: 0x0F
READ: 0x00
READ: 0xCF
READ: 0x4F
READ: 0x30
READ: 0x00
READ: 0x03
READ: 0x43

Unlock

READ: 0xBF
UART>
READ: 0x0F
READ: 0x03
READ: 0xCF
READ: 0x4F
READ: 0x00
READ: 0x00
READ: 0x80
READ: 0xF3
UART>
READ: 0xBF
UART>
READ: 0x0F
READ: 0x0C
READ: 0xC0
READ: 0x0F
READ: 0x00
READ: 0x33
UART>
READ: 0xFF
UART>
READ: 0x0F
READ: 0x0F
READ: 0xC0
READ: 0x0F
READ: 0x00
READ: 0x30

Lock

READ: 0xBF
UART>
READ: 0x0F
READ: 0x0C
READ: 0xCF
READ: 0x4F
READ: 0x00
READ: 0x00
READ: 0x03
READ: 0x7F
UART>
READ: 0xBF
UART>
READ: 0x0F
READ: 0x0F
READ: 0xCF
READ: 0x4F
READ: 0x00
READ: 0x00
READ: 0x83
READ: 0xFC
UART>
READ: 0xBF
UART>
READ: 0x0F
READ: 0x0F
READ: 0xC0
READ: 0x0F
READ: 0x03
READ: 0x33
UART>

UART>
READ: 0xBF
UART>
READ: 0x0F
READ: 0x00
READ: 0xC0
READ: 0x0F
READ: 0x03
READ: 0x3C

mycode 1234

READ: 0xBF
UART>
READ: 0x00
READ: 0x0C
READ: 0xCF
READ: 0x43
READ: 0x00
READ: 0x03
READ: 0x03
READ: 0x00
READ: 0x7F
UART>
READ: 0xBF
UART>
READ: 0x00
READ: 0x33
READ: 0xC0
READ: 0x0C
READ: 0x00
READ: 0x03
READ: 0x30
READ: 0x30
READ: 0x7C
READ: 0x7C
READ: 0x03
UART>
READ: 0xBF
UART>
READ: 0x00
READ: 0x3C
READ: 0xC0
READ: 0x0C
READ: 0x00
READ: 0x03
READ: 0x30
READ: 0x30
READ: 0x7C
READ: 0x7C
READ: 0x0C

remove mycode 1234
GARBAGE

READ: 0xFF 
READ: 0x0F 
READ: 0x40 
READ: 0x3F 

READ: 0xFF 
UART>rrrr
READ: 0x00 
READ: 0x4C 
READ: 0xC0 

GARBAGE

READ: 0xFF 
READ: 0x0F 
READ: 0x03 
READ: 0xCF 
UART>rrrr
READ: 0xFF 
READ: 0x0C 
READ: 0x03 
READ: 0xC0 

GARBAGE
