*z wave module is zm3102n (cant be because pin 11 is ground)
* pin 1,6,12,16,17 are ground this matches the module that is on the daughter card
* pin 10 and 15 are rx and tx for serial
* pin txd (15) connects to pin 8 on daughter board
* pin rxd (10) connnects to pin ping 6 on daughter board.
* pin 3,5,7,9 on daughter board are gnd
* 9600 baud bus

Pin 6 traffic
READ: 0xBD 
UART>r
READ: 0x0F 
UART>r
READ: 0x03 
UART>r

READ: 0xFF 
UART>r
READ: 0x0F 
UART>r
READ: 0x03 
UART>
UART>r
READ: 0xCF 
UART>r

UART>r
READ: 0xBD 
UART>r
READ: 0x0F 
UART>r
READ: 0x03 
UART>r
READ: 0xC0 
UART>r
READ: 0xBD 
UART>r

READ: 0xBD 
UART>r
READ: 0x0F 
UART>r
READ: 0x03 
UART>r
READ: 0xC0 
UART>r

READ: 0xBD 
UART>r
READ: 0x0F 
UART>r
READ: 0x00 
UART>r
READ: 0xC0 
UART>r

READ: 0xFF 
UART>r
READ: 0x0F 
UART>r
READ: 0x03 
UART>r
READ: 0xCF 
UART>r

READ: 0xFF 
UART>r
READ: 0x0F 
UART>r
READ: 0x03 
UART>r
READ: 0xCF 

READ: 0xFF 
UART>r
READ: 0x0F 
UART>r
READ: 0x0C 
UART>r
READ: 0xCF 
UART>r

READ: 0xFF 
UART>r
READ: 0x0F 
UART>r
READ: 0x00 
UART>r
READ: 0xC0 


READ: 0xFF 
UART>
UART>r
READ: 0x0F 
UART>r
READ: 0x0C 
UART>r
READ: 0xC0 
UART>r

UART>r
READ: 0xFF 
UART>r
READ: 0x0F 
UART>r
READ: 0x0F 
UART>r
READ: 0xCF 
UART>r

READ: 0xFF 
UART>r
READ: 0x0F 
UART>r
READ: 0x0C 
UART>r
READ: 0xCF 
UART>r
READ: 0xFF 
UART>r

READ: 0xFF 
UART>r
READ: 0x0F 
UART>r
READ: 0x00 
UART>r
READ: 0xC0 
UART>r

UART>r
READ: 0xFF 
UART>r
READ: 0x0F 
UART>r
READ: 0x0C 
UART>r
READ: 0xC0 

UART>r
READ: 0xFF 
UART>r
READ: 0x0F 
UART>r
READ: 0x0F 
UART>r
READ: 0xCF 

pin 8 traffic
READ: -f 0x00 
READ: 0xBD 
READ: 0x04 
READ: 0x01 

READ: 0xBD 
UART>r
READ: 0x04 
UART>r
READ: 0x02 
UART>r
READ: 0xE7 
UART>r

READ: 0xBD 
READ: 0x04 
READ: 0x01 
READ: 0xE7 

READ: 0xBD 
READ: 0x04 
READ: 0x02 
READ: 0xE7 

READ: 0xBD 
READ: 0x04 
READ: 0x04 
READ: 0xE7 



READ: 0xBD 
READ: 0x04 
READ: 0x01 
READ: 0xE7 


WRITE: 0xBD 
WRITE: 0x04 
WRITE: 0x03 
WRITE: 0x0E 
UART>rrrrr
READ: 0xBF 
READ: 0x0F 
READ: 0x03 
READ: 0x3F 


it looks like first byte might be a sequence
UART>0xbd 0x04 0x03 0x0e
WRITE: 0xBD 
WRITE: 0x04 
WRITE: 0x03 
WRITE: 0x0E 
UART>rrrrr
READ: 0xFF 
READ: 0x0F 
READ: 0x03 
READ: 0x3F 
READ: FAILED, NO DATA0x00 

putting in a bad code seems to lock the lock up

READ: FAILED, NO DATA0x00 
UART>0xbd 0x04 0x03 0x0e
WRITE: 0xBD 
WRITE: 0x04 
WRITE: 0x03 
WRITE: 0x0E 
UART>rrrrr
READ: 0xFF 
READ: 0x0F 
READ: 0x03 
READ: 0x3F 
READ: FAILED, NO DATA0x00 

UART>0x00 0xbd 0x04 0x01
WRITE: 0x00 
WRITE: 0xBD 
WRITE: 0x04 
WRITE: 0x01 
UART>rrrrr
READ: 0xFF 
READ: 0x0F 
READ: 0x03 
READ: 0x3F 
READ: FAILED, NO DATA0x00 


start in locked position
UART>0x00 0xbd 0x04 0x01
WRITE: 0x00 
WRITE: 0xBD 
WRITE: 0x04 
WRITE: 0x01 
UART>rrrrr
READ: 0xBF 
READ: 0x0F 
READ: 0x03 
READ: 0x7F 


UART>0x00 0xbd 0x04 0x01
WRITE: 0x00 
WRITE: 0xBD 
WRITE: 0x04 
WRITE: 0x01 
UART>rrrrr
READ: 0xBF 
READ: 0x0F 
READ: 0x03 
READ: 0x7F 


READ: FAILED, NO DATA0x00 
UART>0x00 0xbd 0x04 0x01
WRITE: 0x00 
WRITE: 0xBD 
WRITE: 0x04 
WRITE: 0x01 
UART>rrrrr
READ: 0xBF 
READ: 0x0F 
READ: 0x03 
READ: 0x7F 
READ: FAILED, NO DATA0x00 


unlocked 
UART>0x00 0xbd 0x04 0x01
WRITE: 0x00 
WRITE: 0xBD 
WRITE: 0x04 
WRITE: 0x01 
UART>rrrrr
READ: 0xBF 
READ: 0x0F 
READ: 0x03 
READ: 0x7F 
READ: FAILED, NO DATA0x00 


recoverd with this one multiple times 
UART>0x00 0xbd 0x04 0x01
WRITE: 0x00 
WRITE: 0xBD 
WRITE: 0x04 
WRITE: 0x01 
UART>rrrrr
READ: 0xBF 
READ: 0x0F 
READ: 0x03 
READ: 0x7F 
READ: FAILED, NO DATA0x00 


UART>0xbd 0x04 0x03 0x0e
WRITE: 0xBD 
WRITE: 0x04 
WRITE: 0x03 
WRITE: 0x0E 
UART>rrrrr
READ: 0xBF 
READ: 0x0F 
READ: 0x03 
READ: 0x7F 
READ: FAILED, NO DATA0x00 
UART>

UART>0x00 0xbd 0x04 0x01
WRITE: 0x00 
WRITE: 0xBD 
WRITE: 0x04 
WRITE: 0x01 
UART>rrrrr
READ: 0xBD 
READ: 0x0F 
READ: 0x03 
READ: 0x3F 
READ: FAILED, NO DATA0x00 
